
**** 10/29/19 19:11:42 ***** PSpice 16.6.0 (October 2012) ***** ID# 0 ********

 ** Profile: "SCHEMATIC1-biquadSweep"  [ D:\CMPE-460\Labs\Lab7\lab7-pspicefiles\schematic1\biquadsweep.sim ] 


 ****     CIRCUIT DESCRIPTION


******************************************************************************




** Creating circuit file "biquadSweep.cir" 
** WARNING: THIS AUTOMATICALLY GENERATED FILE MAY BE OVERWRITTEN BY SUBSEQUENT SIMULATIONS

*Libraries: 
* Profile Libraries :
* Local Libraries :
* From [PSPICE NETLIST] section of C:\Users\cnl9674\cdssetup\OrCAD_PSpice/16.6.0/PSpice.ini file:
.lib "nom.lib" 

*Analysis directives: 
.AC DEC 10 1 1e6
.OPTIONS ADVCONV
.PROBE64 V(alias(*)) I(alias(*)) W(alias(*)) D(alias(*)) NOISE(alias(*)) 
.INC "..\SCHEMATIC1.net" 



**** INCLUDING SCHEMATIC1.net ****
* source LAB7
C_C1         0 N00105  1.59155e-8  TC=0,0 
R_R1         N00098 N00105  10k TC=0,0 
V_V1         N00098 0 DC 0Vdc AC 1Vac 
V_V2         N01052 0 DC 0Vdc AC 1Vac 
R_R2         N01052 N01059  1k TC=0,0 
R_R3         N01059 N01063  1k TC=0,0 
R_R4         N01082 N01067  1k TC=0,0 
R_R5         0 N01082  1k TC=0,0 
C_C2         0 N01063  1.591e-7  TC=0,0 
C_C3         N01067 N01059  1.591e-7  TC=0,0 
X_U1         N01063 N01082 VDC+ VDC- N01067 uA741
V_V3         VDC+ 0 5
V_V4         0 VDC- 5
X_U2         N02681 N02697 V1DC+ V1DC- N02685 uA741
V_V6         V1DC+ 0 15
R_R9         0 N02697  54k TC=0,0 
V_V5         N02645 0 DC 0Vdc AC 1Vac 
R_R6         N02645 N02677  7k TC=0,0 
C_C4         0 N02681  1.36e-6  TC=0,0 
V_V7         0 V1DC- 15
R_R7         N02677 N02681  41k TC=0,0 
C_C5         N02685 N02677  0.68e-6  TC=0,0 
R_R8         N02697 N02685  600k TC=0,0 
X_U3         N03679 0 V15DC+ V15DC- N04087 uA741
X_U4         N04442 0 V15DC+ V15DC- N04519 uA741
X_U5         0 N04301 V15DC+ V15DC- N04243 uA741
R_R10         N03727 N03679  77.5k TC=0,0 
V_V8         N03727 0 DC 0Vdc AC 1Vac 
R_R11         N03679 N04087  775k TC=0,0 
V_V10         0 V15DC- 15
V_V9         V15DC+ 0 15
C_C6         N04087 N03679  0.01e-6  TC=0,0 
R_R12         N03679 N04243  31k TC=0,0 
C_C7         N04301 N04243  0.01e-6  TC=0,0 
R_R13         N04301 N04519  31k TC=0,0 
R_R14         N04087 N04442  31k TC=0,0 
R_R15         N04442 N04519  31k TC=0,0 
.PARAM  cap2=1e-9 cap=10e-9

**** RESUMING biquadSweep.cir ****
.END

**** 10/29/19 19:11:42 ***** PSpice 16.6.0 (October 2012) ***** ID# 0 ********

 ** Profile: "SCHEMATIC1-biquadSweep"  [ D:\CMPE-460\Labs\Lab7\lab7-pspicefiles\schematic1\biquadsweep.sim ] 


 ****     Diode MODEL PARAMETERS


******************************************************************************




               X_U1.dx         X_U1.dy         X_U2.dx         X_U2.dy         
          IS  800.000000E-18  800.000000E-18  800.000000E-18  800.000000E-18 
          RS    1               1.000000E-03    1               1.000000E-03 
         CJO                   10.000000E-12                   10.000000E-12 


               X_U3.dx         X_U3.dy         X_U4.dx         X_U4.dy         
          IS  800.000000E-18  800.000000E-18  800.000000E-18  800.000000E-18 
          RS    1               1.000000E-03    1               1.000000E-03 
         CJO                   10.000000E-12                   10.000000E-12 


               X_U5.dx         X_U5.dy         
          IS  800.000000E-18  800.000000E-18 
          RS    1               1.000000E-03 
         CJO                   10.000000E-12 


**** 10/29/19 19:11:42 ***** PSpice 16.6.0 (October 2012) ***** ID# 0 ********

 ** Profile: "SCHEMATIC1-biquadSweep"  [ D:\CMPE-460\Labs\Lab7\lab7-pspicefiles\schematic1\biquadsweep.sim ] 


 ****     BJT MODEL PARAMETERS


******************************************************************************




               X_U1.qx         X_U2.qx         X_U3.qx         X_U4.qx         
               NPN             NPN             NPN             NPN             
       LEVEL    1               1               1               1            
          IS  800.000000E-18  800.000000E-18  800.000000E-18  800.000000E-18 
          BF   93.75           93.75           93.75           93.75         
          NF    1               1               1               1            
          BR    1               1               1               1            
          NR    1               1               1               1            
         ISS    0               0               0               0            
          RE    0               0               0               0            
          RC    0               0               0               0            
         CJE    0               0               0               0            
         VJE     .75             .75             .75             .75         
         CJC    0               0               0               0            
         VJC     .75             .75             .75             .75         
         MJC     .33             .33             .33             .33         
        XCJC    1               1               1               1            
         CJS    0               0               0               0            
         VJS     .75             .75             .75             .75         
          KF    0               0               0               0            
          AF    1               1               1               1            
          CN    2.42            2.42            2.42            2.42         
           D     .87             .87             .87             .87         


               X_U5.qx         
               NPN             
       LEVEL    1            
          IS  800.000000E-18 
          BF   93.75         
          NF    1            
          BR    1            
          NR    1            
         ISS    0            
          RE    0            
          RC    0            
         CJE    0            
         VJE     .75         
         CJC    0            
         VJC     .75         
         MJC     .33         
        XCJC    1            
         CJS    0            
         VJS     .75         
          KF    0            
          AF    1            
          CN    2.42         
           D     .87         


**** 10/29/19 19:11:42 ***** PSpice 16.6.0 (October 2012) ***** ID# 0 ********

 ** Profile: "SCHEMATIC1-biquadSweep"  [ D:\CMPE-460\Labs\Lab7\lab7-pspicefiles\schematic1\biquadsweep.sim ] 


 ****     SMALL SIGNAL BIAS SOLUTION       TEMPERATURE =   27.000 DEG C


******************************************************************************



 NODE   VOLTAGE     NODE   VOLTAGE     NODE   VOLTAGE     NODE   VOLTAGE


( VDC+)    5.0000  ( VDC-)   -5.0000  (V1DC+)   15.0000  (V1DC-)  -15.0000      

(N00098)    0.0000 (N00105)    0.0000 (N01052)    0.0000 (N01059)-79.73E-06     

(N01063)-159.5E-06 (N01067)-200.6E-06 (N01082)-140.2E-06 (N02645)    0.0000     

(N02677)-558.0E-06 (N02681)    -.0038 (N02685)     .0017 (N02697)    -.0038     

(N03679)-19.25E-06 (N03727)    0.0000 (N04087)-58.91E-06 (N04243)     .0024     

(N04301) 19.24E-06 (N04442)-19.24E-06 (N04519)     .0025 (V15DC+)   15.0000     

(V15DC-)  -15.0000 (X_U1.6) 19.44E-09 (X_U1.7)-203.7E-06 (X_U1.8)-203.7E-06     

(X_U1.9)    0.0000 (X_U2.6)-165.0E-09 (X_U2.7)     .0017 (X_U2.8)     .0017     

(X_U2.9)    0.0000 (X_U3.6) 5.229E-09 (X_U3.7)-58.98E-06 (X_U3.8)-58.98E-06     

(X_U3.9)    0.0000 (X_U4.6)-237.4E-09 (X_U4.7)     .0025 (X_U4.8)     .0025     

(X_U4.9)    0.0000 (X_U5.6)-231.9E-09 (X_U5.7)     .0025 (X_U5.8)     .0025     

(X_U5.9)    0.0000 (X_U1.10)    -.6078                   (X_U1.11)    4.9603    

(X_U1.12)    4.9603                   (X_U1.13)    -.5939                       

(X_U1.14)    -.5940                   (X_U1.53)    4.0000                       

(X_U1.54)   -4.0000                   (X_U1.90)-60.44E-06                       

(X_U1.91)   40.0000                   (X_U1.92)  -40.0000                       

(X_U1.99)    0.0000                   (X_U2.10)    -.6115                       

(X_U2.11)   14.9600                   (X_U2.12)   14.9600                       

(X_U2.13)    -.5976                   (X_U2.14)    -.5976                       

(X_U2.53)   14.0000                   (X_U2.54)  -14.0000                       

(X_U2.90) 9.255E-06                   (X_U2.91)   40.0000                       

(X_U2.92)  -40.0000                   (X_U2.99)    0.0000                       

(X_U3.10)    -.6077                   (X_U3.11)   14.9600                       

(X_U3.12)   14.9600                   (X_U3.13)    -.5938                       

(X_U3.14)    -.5938                   (X_U3.53)   14.0000                       

(X_U3.54)  -14.0000                   (X_U3.90)-1.331E-06                       

(X_U3.91)   40.0000                   (X_U3.92)  -40.0000                       

(X_U3.99)    0.0000                   (X_U4.10)    -.6077                       

(X_U4.11)   14.9600                   (X_U4.12)   14.9600                       

(X_U4.13)    -.5938                   (X_U4.14)    -.5938                       

(X_U4.53)   14.0000                   (X_U4.54)  -14.0000                       

(X_U4.90) 160.8E-06                   (X_U4.91)   40.0000                       

(X_U4.92)  -40.0000                   (X_U4.99)    0.0000                       

(X_U5.10)    -.6077                   (X_U5.11)   14.9600                       

(X_U5.12)   14.9600                   (X_U5.13)    -.5938                       

(X_U5.14)    -.5938                   (X_U5.53)   14.0000                       

(X_U5.54)  -14.0000                   (X_U5.90) 79.53E-06                       

(X_U5.91)   40.0000                   (X_U5.92)  -40.0000                       

(X_U5.99)    0.0000                   




    VOLTAGE SOURCE CURRENTS
    NAME         CURRENT

    V_V1         0.000E+00
    V_V2        -7.973E-08
    V_V3        -5.656E-04
    V_V4        -5.658E-04
    V_V6        -1.667E-03
    V_V5        -7.972E-08
    V_V7        -1.667E-03
    V_V8        -2.484E-10
    V_V10       -5.001E-03
    V_V9        -5.001E-03
    X_U1.vb      1.944E-13
    X_U1.vc      4.001E-12
    X_U1.ve      4.093E-12
    X_U1.vlim   -6.044E-08
    X_U1.vlp    -4.000E-11
    X_U1.vln    -4.000E-11
    X_U2.vb     -1.650E-12
    X_U2.vc      1.400E-11
    X_U2.ve      1.455E-11
    X_U2.vlim    9.255E-09
    X_U2.vlp    -4.000E-11
    X_U2.vln    -4.000E-11
    X_U3.vb      5.231E-14
    X_U3.vc      1.400E-11
    X_U3.ve      1.455E-11
    X_U3.vlim   -1.331E-09
    X_U3.vlp    -4.000E-11
    X_U3.vln    -4.000E-11
    X_U4.vb     -2.374E-12
    X_U4.vc      1.400E-11
    X_U4.ve      1.455E-11
    X_U4.vlim    1.608E-07
    X_U4.vlp    -4.000E-11
    X_U4.vln    -4.000E-11
    X_U5.vb     -2.319E-12
    X_U5.vc      1.400E-11
    X_U5.ve      1.455E-11
    X_U5.vlim    7.953E-08
    X_U5.vlp    -4.000E-11
    X_U5.vln    -4.000E-11

    TOTAL POWER DISSIPATION   2.06E-01  WATTS



          JOB CONCLUDED

**** 10/29/19 19:11:42 ***** PSpice 16.6.0 (October 2012) ***** ID# 0 ********

 ** Profile: "SCHEMATIC1-biquadSweep"  [ D:\CMPE-460\Labs\Lab7\lab7-pspicefiles\schematic1\biquadsweep.sim ] 


 ****     JOB STATISTICS SUMMARY


******************************************************************************



  Total job time (using Solver 1)   =         .27
