
**** 10/29/19 17:42:41 ***** PSpice 16.6.0 (October 2012) ***** ID# 0 ********

 ** Profile: "SCHEMATIC1-sweep"  [ D:\CMPE-460\Labs\Lab7\lab7-pspicefiles\schematic1\sweep.sim ] 


 ****     CIRCUIT DESCRIPTION


******************************************************************************




** Creating circuit file "sweep.cir" 
** WARNING: THIS AUTOMATICALLY GENERATED FILE MAY BE OVERWRITTEN BY SUBSEQUENT SIMULATIONS

*Libraries: 
* Profile Libraries :
* Local Libraries :
* From [PSPICE NETLIST] section of C:\Users\cnl9674\cdssetup\OrCAD_PSpice/16.6.0/PSpice.ini file:
.lib "nom.lib" 

*Analysis directives: 
.AC DEC 10 1 1e6
.OPTIONS ADVCONV
.PROBE64 V(alias(*)) I(alias(*)) W(alias(*)) D(alias(*)) NOISE(alias(*)) 
.INC "..\SCHEMATIC1.net" 



**** INCLUDING SCHEMATIC1.net ****
* source LAB7
C_C1         0 N00105  1.59155e-8  TC=0,0 
R_R1         N00098 N00105  10k TC=0,0 
V_V1         N00098 0 DC 0Vdc AC 1Vac 
V_V2         N01052 0 DC 0Vdc AC 1Vac 
R_R2         N01052 N01059  1k TC=0,0 
R_R3         N01059 N01063  1k TC=0,0 
R_R4         N01082 N01067  1k TC=0,0 
R_R5         0 N01082  1k TC=0,0 
C_C2         0 N01063  1.591e-7  TC=0,0 
C_C3         N01067 N01059  1.591e-7  TC=0,0 
X_U1         N01063 N01082 VDC+ VDC- N01067 uA741
V_V3         VDC+ 0 5
V_V4         0 VDC- 5
X_U2         N02681 N02697 V1DC+ V1DC- N02685 uA741
V_V6         V1DC+ 0 10
R_R9         0 N02697  53 TC=0,0 
V_V5         N02645 0 DC 0Vdc AC 1Vac 
R_R6         N02645 N02677  7 TC=0,0 
C_C4         0 N02681  1.36e-6  TC=0,0 
V_V7         0 V1DC- 10
R_R7         N02677 N02681  41 TC=0,0 
C_C5         N02685 N02677  0.68e-6  TC=0,0 
R_R8         N02697 N02685  600 TC=0,0 
.PARAM  cap2=1e-9 cap=10e-9

**** RESUMING sweep.cir ****
.END

**** 10/29/19 17:42:41 ***** PSpice 16.6.0 (October 2012) ***** ID# 0 ********

 ** Profile: "SCHEMATIC1-sweep"  [ D:\CMPE-460\Labs\Lab7\lab7-pspicefiles\schematic1\sweep.sim ] 


 ****     Diode MODEL PARAMETERS


******************************************************************************




               X_U1.dx         X_U1.dy         X_U2.dx         X_U2.dy         
          IS  800.000000E-18  800.000000E-18  800.000000E-18  800.000000E-18 
          RS    1               1.000000E-03    1               1.000000E-03 
         CJO                   10.000000E-12                   10.000000E-12 


**** 10/29/19 17:42:41 ***** PSpice 16.6.0 (October 2012) ***** ID# 0 ********

 ** Profile: "SCHEMATIC1-sweep"  [ D:\CMPE-460\Labs\Lab7\lab7-pspicefiles\schematic1\sweep.sim ] 


 ****     BJT MODEL PARAMETERS


******************************************************************************




               X_U1.qx         X_U2.qx         
               NPN             NPN             
       LEVEL    1               1            
          IS  800.000000E-18  800.000000E-18 
          BF   93.75           93.75         
          NF    1               1            
          BR    1               1            
          NR    1               1            
         ISS    0               0            
          RE    0               0            
          RC    0               0            
         CJE    0               0            
         VJE     .75             .75         
         CJC    0               0            
         VJC     .75             .75         
         MJC     .33             .33         
        XCJC    1               1            
         CJS    0               0            
         VJS     .75             .75         
          KF    0               0            
          AF    1               1            
          CN    2.42            2.42         
           D     .87             .87         


**** 10/29/19 17:42:41 ***** PSpice 16.6.0 (October 2012) ***** ID# 0 ********

 ** Profile: "SCHEMATIC1-sweep"  [ D:\CMPE-460\Labs\Lab7\lab7-pspicefiles\schematic1\sweep.sim ] 


 ****     SMALL SIGNAL BIAS SOLUTION       TEMPERATURE =   27.000 DEG C


******************************************************************************



 NODE   VOLTAGE     NODE   VOLTAGE     NODE   VOLTAGE     NODE   VOLTAGE


( VDC+)    5.0000  ( VDC-)   -5.0000  (V1DC+)   10.0000  (V1DC-)  -10.0000      

(N00098)    0.0000 (N00105)    0.0000 (N01052)    0.0000 (N01059)-79.73E-06     

(N01063)-159.5E-06 (N01067)-200.6E-06 (N01082)-140.2E-06 (N02645)    0.0000     

(N02677)-558.1E-09 (N02681)-3.827E-06 (N02685) 237.9E-06 (N02697) 15.42E-06     

(X_U1.6) 19.52E-09 (X_U1.7)-203.7E-06 (X_U1.8)-203.7E-06 (X_U1.9)    0.0000     

(X_U2.6)-27.99E-09 (X_U2.7) 256.4E-06 (X_U2.8) 256.4E-06 (X_U2.9)    0.0000     

(X_U1.10)    -.6078                   (X_U1.11)    4.9603                       

(X_U1.12)    4.9603                   (X_U1.13)    -.5939                       

(X_U1.14)    -.5940                   (X_U1.53)    4.0000                       

(X_U1.54)   -4.0000                   (X_U1.90)-60.44E-06                       

(X_U1.91)   40.0000                   (X_U1.92)  -40.0000                       

(X_U1.99)    0.0000                   (X_U2.10)    -.6077                       

(X_U2.11)    9.9603                   (X_U2.12)    9.9603                       

(X_U2.13)    -.5938                   (X_U2.14)    -.5938                       

(X_U2.53)    9.0000                   (X_U2.54)   -9.0000                       

(X_U2.90) 370.8E-06                   (X_U2.91)   40.0000                       

(X_U2.92)  -40.0000                   (X_U2.99)    0.0000                   




    VOLTAGE SOURCE CURRENTS
    NAME         CURRENT

    V_V1         0.000E+00
    V_V2        -7.973E-08
    V_V3        -5.656E-04
    V_V4        -5.658E-04
    V_V6        -1.116E-03
    V_V5        -7.973E-08
    V_V7        -1.116E-03
    X_U1.vb      1.952E-13
    X_U1.vc      4.001E-12
    X_U1.ve      4.093E-12
    X_U1.vlim   -6.044E-08
    X_U1.vlp    -4.000E-11
    X_U1.vln    -4.000E-11
    X_U2.vb     -2.799E-13
    X_U2.vc      9.001E-12
    X_U2.ve      9.095E-12
    X_U2.vlim    3.708E-07
    X_U2.vlp    -4.000E-11
    X_U2.vln    -4.000E-11

    TOTAL POWER DISSIPATION   2.80E-02  WATTS



          JOB CONCLUDED

**** 10/29/19 17:42:41 ***** PSpice 16.6.0 (October 2012) ***** ID# 0 ********

 ** Profile: "SCHEMATIC1-sweep"  [ D:\CMPE-460\Labs\Lab7\lab7-pspicefiles\schematic1\sweep.sim ] 


 ****     JOB STATISTICS SUMMARY


******************************************************************************



  Total job time (using Solver 1)   =         .27
